T0718 3384:867 SEGGER J-Link V6.46 Log File (0000ms, 2880ms total)
T0718 3384:867 DLL Compiled: May 23 2019 17:49:56 (0000ms, 2880ms total)
T0718 3384:867 Logging started @ 2021-11-18 15:35 (0000ms, 2880ms total)
T0718 3384:867 JLINK_SetWarnOutHandler(...) (0000ms, 2880ms total)
T0718 3384:867 JLINK_OpenEx(...)
Firmware: J-Link ARM V8 compiled Nov 28 2014 13:44:46
Hardware: V8.00
S/N: 788594195
Feature(s): RDI,FlashDL,FlashBP,JFlash,GDB
TELNET listener socket opened on port 19021Device "ARM7" selected.WEBSRV 
Starting webserver (0035ms, 2915ms total)
T0718 3384:867 WEBSRV Webserver running on local port 19080 (0035ms, 2915ms total)
T0718 3384:867   returns O.K. (0035ms, 2915ms total)
T0718 3384:902 JLINK_GetEmuCaps()  returns 0xB9FF7BBF (0000ms, 2915ms total)
T0718 3384:903 JLINK_TIF_GetAvailable(...) (0001ms, 2916ms total)
T0718 3384:904 JLINK_SetErrorOutHandler(...) (0000ms, 2916ms total)
T0718 3384:904 JLINK_ExecCommand("ProjectFile = "D:\Google Drive\Для Карпова\Проект для насоса 6\JLinkSettings.ini"", ...). Device "ARM7" selected.  returns 0x00 (0003ms, 2919ms total)
T0718 3384:909 JLINK_ExecCommand("Device = STM32F103C8", ...). Device "STM32F103C8" selected.  returns 0x00 (0003ms, 2922ms total)
T0718 3384:912 JLINK_ExecCommand("DisableConnectionTimeout", ...).   returns 0x01 (0000ms, 2922ms total)
T0718 3384:912 JLINK_GetHardwareVersion()  returns 0x13880 (0000ms, 2922ms total)
T0718 3384:912 JLINK_GetDLLVersion()  returns 64600 (0000ms, 2922ms total)
T0718 3384:912 JLINK_GetFirmwareString(...) (0000ms, 2922ms total)
T0718 3384:920 JLINK_GetDLLVersion()  returns 64600 (0000ms, 2922ms total)
T0718 3384:920 JLINK_GetCompileDateTime() (0000ms, 2922ms total)
T0718 3384:922 JLINK_GetFirmwareString(...) (0000ms, 2922ms total)
T0718 3384:924 JLINK_GetHardwareVersion()  returns 0x13880 (0000ms, 2922ms total)
T0718 3384:934 JLINK_TIF_Select(JLINKARM_TIF_SWD)  returns 0x00 (0002ms, 2924ms total)
T0718 3384:936 JLINK_SetSpeed(50000) (0000ms, 2924ms total)
T0718 3384:936 JLINK_GetId() >0x10B TIF>Found SW-DP with ID 0x1BA01477 >0x0D TIF> >0x28 TIF> >0x0D TIF> >0x28 TIF> >0x0D TIF> >0x28 TIF> >0x0D TIF> >0x28 TIF> >0x0D TIF> >0x21 TIF> >0x0D TIF> >0x28 TIF> >0x0D TIF> >0x28 TIF> >0x0D TIF> >0x28 TIF> >0x0D TIF> >0x21 TIF> >0x0D TIF> >0x21 TIF> >0x0D TIF> >0x28 TIF> >0x0D TIF> >0x21 TIF> >0x0D TIF> >0x21 TIF> >0x0D TIF> >0x28 TIF> >0x0D TIF> >0x28 TIF> >0x0D TIF> >0x28 TIF> >0x0D TIF> >0x21 TIF> >0x0D TIF> >0x21 TIF> >0x0D TIF> >0x28 TIF> >0x0D TIF>
 >0x21 TIF> >0x0D TIF> >0x21 TIF> >0x0D TIF> >0x28 TIF> >0x0D TIF> >0x21 TIF> >0x0D TIF> >0x21 TIF> >0x0D TIF> >0x28 TIF> >0x0D TIF> >0x21 TIF> >0x0D TIF> >0x21 TIF> >0x0D TIF> >0x28 TIF> >0x0D TIF> >0x21 TIF> >0x0D TIF> >0x21 TIF> >0x10B TIF>Found SW-DP with ID 0x1BA01477 >0x0D TIF> >0x28 TIF> >0x0D TIF> >0x28 TIF> >0x0D TIF> >0x28 TIF> >0x0D TIF> >0x28 TIF> >0x0D TIF> >0x21 TIF> >0x0D TIF> >0x28 TIF>Scanning AP map to find all available APs >0x0D TIF> >0x28 TIF> >0x0D TIF> >0x21 TIF> >0x0D TIF>
 >0x21 TIF> >0x0D TIF> >0x28 TIF> >0x0D TIF> >0x21 TIF> >0x0D TIF> >0x21 TIF>AP[1]: Stopped AP scan as end of AP map has been reachedAP[0]: AHB-AP (IDR: 0x14770011)Iterating through AP map to find AHB-AP to use >0x42 TIF> >0x28 TIF> >0x0D TIF> >0x28 TIF> >0x0D TIF> >0x21 TIF> >0x0D TIF> >0x21 TIF> >0x42 TIF> >0x28 TIF> >0x0D TIF> >0x28 TIF> >0x0D TIF> >0x28 TIF> >0x0D TIF> >0x21 TIF> >0x0D TIF> >0x21 TIF>AP[0]: Core foundAP[0]: AHB-AP ROM base: 0xE00FF000 >0x0D TIF> >0x28 TIF> >0x0D TIF> >0x28 TIF>
 >0x0D TIF> >0x28 TIF> >0x0D TIF> >0x21 TIF> >0x0D TIF> >0x21 TIF>CPUID register: 0x411FC231. Implementer code: 0x41 (ARM)Found Cortex-M3 r1p1, Little endian. -- Max. mem block: 0x00002408 -- CPU_ReadMem(4 bytes @ 0xE000EDF0) -- CPU_WriteMem(4 bytes @ 0xE000EDF0) -- CPU_ReadMem(4 bytes @ 0xE0002000)FPUnit: 6 code (BP) slots and 2 literal slots -- CPU_ReadMem(4 bytes @ 0xE000EDFC) -- CPU_WriteMem(4 bytes @ 0xE000EDFC) -- CPU_ReadMem(4 bytes @ 0xE0001000) -- CPU_WriteMem(4 bytes @ 0xE0001000)
 -- CPU_ReadMem(4 bytes @ 0xE000ED88) -- CPU_WriteMem(4 bytes @ 0xE000ED88) -- CPU_ReadMem(4 bytes @ 0xE000ED88) -- CPU_WriteMem(4 bytes @ 0xE000ED88)CoreSight components:ROMTbl[0] @ E00FF000 -- CPU_ReadMem(16 bytes @ 0xE00FF000) -- CPU_ReadMem(16 bytes @ 0xE000EFF0) -- CPU_ReadMem(16 bytes @ 0xE000EFE0)ROMTbl[0][0]: E000E000, CID: B105E00D, PID: 001BB000 SCS -- CPU_ReadMem(16 bytes @ 0xE0001FF0) -- CPU_ReadMem(16 bytes @ 0xE0001FE0)ROMTbl[0][1]: E0001000, CID: B105E00D, PID: 001BB002 DWT
 -- CPU_ReadMem(16 bytes @ 0xE0002FF0) -- CPU_ReadMem(16 bytes @ 0xE0002FE0)ROMTbl[0][2]: E0002000, CID: B105E00D, PID: 000BB003 FPB -- CPU_ReadMem(16 bytes @ 0xE0000FF0) -- CPU_ReadMem(16 bytes @ 0xE0000FE0)ROMTbl[0][3]: E0000000, CID: B105E00D, PID: 001BB001 ITM -- CPU_ReadMem(16 bytes @ 0xE00FF010) -- CPU_ReadMem(16 bytes @ 0xE0040FF0) -- CPU_ReadMem(16 bytes @ 0xE0040FE0)ROMTbl[0][4]: E0040000, CID: B105900D, PID: 001BB923 TPIU-Lite >0x0D TIF> >0x21 TIF>  returns 0x1BA01477 (0228ms, 3152ms total)
T0718 3385:164 JLINK_GetDLLVersion()  returns 64600 (0000ms, 3152ms total)
T0718 3385:164 JLINK_CORE_GetFound()  returns 0x30000FF (0000ms, 3152ms total)
T0718 3385:164 JLINK_GetDebugInfo(0x100 = JLINKARM_ROM_TABLE_ADDR_INDEX) -- Value=0xE00FF000  returns 0x00 (0000ms, 3152ms total)
T0718 3385:166 JLINK_GetDebugInfo(0x100 = JLINKARM_ROM_TABLE_ADDR_INDEX) -- Value=0xE00FF000  returns 0x00 (0000ms, 3152ms total)
T0718 3385:166 JLINK_GetDebugInfo(0x101 = JLINKARM_DEBUG_INFO_ETM_ADDR_INDEX) -- Value=0x00000000  returns 0x00 (0000ms, 3152ms total)
T0718 3385:166 JLINK_ReadMemEx(0xE0041FF0, 0x0010 Bytes, ..., Flags = 0x02000004) -- CPU_ReadMem(16 bytes @ 0xE0041FF0) - Data: 00 00 00 00 00 00 00 00 00 00 00 00 00 00 00 00  returns 0x10 (0001ms, 3153ms total)
T0718 3385:167 JLINK_GetDebugInfo(0x102 = JLINKARM_DEBUG_INFO_MTB_ADDR_INDEX) -- Value=0x00000000  returns 0x00 (0000ms, 3153ms total)
T0718 3385:167 JLINK_GetDebugInfo(0x103 = JLINKARM_DEBUG_INFO_TPIU_ADDR_INDEX) -- Value=0xE0040000  returns 0x00 (0000ms, 3153ms total)
T0718 3385:167 JLINK_GetDebugInfo(0x104 = JLINKARM_DEBUG_INFO_ITM_ADDR_INDEX) -- Value=0xE0000000  returns 0x00 (0000ms, 3153ms total)
T0718 3385:167 JLINK_GetDebugInfo(0x105 = JLINKARM_DEBUG_INFO_DWT_ADDR_INDEX) -- Value=0xE0001000  returns 0x00 (0000ms, 3153ms total)
T0718 3385:167 JLINK_GetDebugInfo(0x106 = JLINKARM_DEBUG_INFO_FPB_ADDR_INDEX) -- Value=0xE0002000  returns 0x00 (0000ms, 3153ms total)
T0718 3385:167 JLINK_GetDebugInfo(0x107 = JLINKARM_DEBUG_INFO_NVIC_ADDR_INDEX) -- Value=0xE000E000  returns 0x00 (0000ms, 3153ms total)
T0718 3385:167 JLINK_GetDebugInfo(0x10C = JLINKARM_DEBUG_INFO_DBG_ADDR_INDEX) -- Value=0xE000EDF0  returns 0x00 (0000ms, 3153ms total)
T0718 3385:167 JLINK_GetDebugInfo(0x01 = Unknown) -- Value=0x00000000  returns 0x00 (0000ms, 3153ms total)
T0718 3385:167 JLINK_ReadMemU32(0xE000ED00, 0x0001 Items, ...) -- CPU_ReadMem(4 bytes @ 0xE000ED00) - Data: 31 C2 1F 41  returns 1 (0001ms, 3154ms total)
T0718 3385:168 JLINK_GetDebugInfo(0x10F = JLINKARM_DEBUG_INFO_HAS_CORTEX_M_SECURITY_EXT_INDEX) -- Value=0x00000000  returns 0x00 (0000ms, 3154ms total)
T0718 3385:168 JLINK_SetResetType(JLINKARM_CM3_RESET_TYPE_NORMAL)  returns JLINKARM_CM3_RESET_TYPE_NORMAL (0000ms, 3154ms total)
T0718 3385:168 JLINK_Reset() -- CPU is running -- CPU_WriteMem(4 bytes @ 0xE000EDF0) -- CPU is running -- CPU_WriteMem(4 bytes @ 0xE000EDFC)Reset: Halt core after reset via DEMCR.VC_CORERESET. >0x35 TIF>Reset: Reset device via AIRCR.SYSRESETREQ. -- CPU is running -- CPU_WriteMem(4 bytes @ 0xE000ED0C) >0x0D TIF> >0x28 TIF> -- CPU_ReadMem(4 bytes @ 0xE000EDF0) -- CPU_ReadMem(4 bytes @ 0xE000EDF0) -- CPU is running -- CPU_WriteMem(4 bytes @ 0xE000EDF0) -- CPU is running -- CPU_WriteMem(4 bytes @ 0xE000EDFC)
 -- CPU_ReadMem(4 bytes @ 0xE000EDF0) -- CPU_WriteMem(4 bytes @ 0xE0002000) -- CPU_ReadMem(4 bytes @ 0xE000EDFC) -- CPU_ReadMem(4 bytes @ 0xE0001000) (0072ms, 3226ms total)
T0718 3385:240 JLINK_Halt()  returns 0x00 (0000ms, 3226ms total)
T0718 3385:240 JLINK_ReadMemU32(0xE000EDF0, 0x0001 Items, ...) -- CPU_ReadMem(4 bytes @ 0xE000EDF0) - Data: 03 00 03 00  returns 1 (0000ms, 3226ms total)
T0718 3385:240 JLINK_WriteU32(0xE000EDF0, 0xA05F0003) -- CPU_WriteMem(4 bytes @ 0xE000EDF0)  returns 0 (0001ms, 3227ms total)
T0718 3385:241 JLINK_WriteU32(0xE000EDFC, 0x01000000) -- CPU_WriteMem(4 bytes @ 0xE000EDFC)  returns 0 (0000ms, 3227ms total)
T0718 3385:250 JLINK_GetHWStatus(...)  returns 0x00 (0001ms, 3228ms total)
T0718 3385:257 JLINK_GetNumBPUnits(Type = 0xFFFFFF00)  returns 0x06 (0000ms, 3228ms total)
T0718 3385:257 JLINK_GetNumBPUnits(Type = 0xF0)  returns 0x2000 (0000ms, 3228ms total)
T0718 3385:257 JLINK_GetNumWPUnits()  returns 0x04 (0000ms, 3228ms total)
T0718 3385:266 JLINK_GetSpeed()  returns 0xFA0 (0000ms, 3228ms total)
T0718 3385:270 JLINK_ReadMemU32(0xE000E004, 0x0001 Items, ...) -- CPU_ReadMem(4 bytes @ 0xE000E004) - Data: 01 00 00 00  returns 1 (0001ms, 3229ms total)
T0718 3385:271 JLINK_ReadMemU32(0xE000E004, 0x0001 Items, ...) -- CPU_ReadMem(4 bytes @ 0xE000E004) - Data: 01 00 00 00  returns 1 (0000ms, 3229ms total)
T0718 3385:271 JLINK_WriteMemEx(0xE0001000, 0x001C Bytes, ..., Flags = 0x02000004) - Data: 01 00 00 00 00 00 00 00 00 00 00 00 00 00 00 00 ... -- CPU_WriteMem(28 bytes @ 0xE0001000)  returns 0x1C (0001ms, 3230ms total)
T0718 3385:272 JLINK_Halt()  returns 0x00 (0000ms, 3230ms total)
T0718 3385:272 JLINK_IsHalted()  returns TRUE (0000ms, 3230ms total)
T0718 3385:274 JLINK_WriteMem(0x20000000, 0x0164 Bytes, ...) - Data: 00 BE 0A E0 0D 78 2D 06 68 40 08 24 40 00 00 D3 ... -- CPU_WriteMem(356 bytes @ 0x20000000)  returns 0x164 (0003ms, 3233ms total)
T0718 3385:277 JLINK_WriteReg(R0, 0x08000000)  returns 0x00 (0000ms, 3233ms total)
T0718 3385:277 JLINK_WriteReg(R1, 0x00B71B00)  returns 0x00 (0000ms, 3233ms total)
T0718 3385:277 JLINK_WriteReg(R2, 0x00000001)  returns 0x00 (0001ms, 3234ms total)
T0718 3385:278 JLINK_WriteReg(R3, 0x00000000)  returns 0x00 (0000ms, 3234ms total)
T0718 3385:278 JLINK_WriteReg(R4, 0x00000000)  returns 0x00 (0000ms, 3234ms total)
T0718 3385:278 JLINK_WriteReg(R5, 0x00000000)  returns 0x00 (0000ms, 3234ms total)
T0718 3385:278 JLINK_WriteReg(R6, 0x00000000)  returns 0x00 (0000ms, 3234ms total)
T0718 3385:278 JLINK_WriteReg(R7, 0x00000000)  returns 0x00 (0000ms, 3234ms total)
T0718 3385:278 JLINK_WriteReg(R8, 0x00000000)  returns 0x00 (0000ms, 3234ms total)
T0718 3385:278 JLINK_WriteReg(R9, 0x20000160)  returns 0x00 (0000ms, 3234ms total)
T0718 3385:278 JLINK_WriteReg(R10, 0x00000000)  returns 0x00 (0000ms, 3234ms total)
T0718 3385:278 JLINK_WriteReg(R11, 0x00000000)  returns 0x00 (0000ms, 3234ms total)
T0718 3385:278 JLINK_WriteReg(R12, 0x00000000)  returns 0x00 (0000ms, 3234ms total)
T0718 3385:278 JLINK_WriteReg(R13 (SP), 0x20001000)  returns 0x00 (0000ms, 3234ms total)
T0718 3385:278 JLINK_WriteReg(R14, 0x20000001)  returns 0x00 (0000ms, 3234ms total)
T0718 3385:278 JLINK_WriteReg(R15 (PC), 0x20000038)  returns 0x00 (0000ms, 3234ms total)
T0718 3385:278 JLINK_WriteReg(XPSR, 0x01000000)  returns 0x00 (0000ms, 3234ms total)
T0718 3385:278 JLINK_WriteReg(MSP, 0x20001000)  returns 0x00 (0000ms, 3234ms total)
T0718 3385:278 JLINK_WriteReg(PSP, 0x20001000)  returns 0x00 (0000ms, 3234ms total)
T0718 3385:278 JLINK_WriteReg(CFBP, 0x00000000)  returns 0x00 (0000ms, 3234ms total)
T0718 3385:278 JLINK_SetBPEx(Addr = 0x20000000, Type = 0xFFFFFFF2) -- CPU_ReadMem(2 bytes @ 0x20000000)  returns 0x00000001 (0000ms, 3234ms total)
T0718 3385:278 JLINK_Go() -- CPU_WriteMem(2 bytes @ 0x20000000) -- CPU_ReadMem(4 bytes @ 0xE0001000) -- CPU_WriteMem(4 bytes @ 0xE0002008) -- CPU_WriteMem(4 bytes @ 0xE000200C) -- CPU_WriteMem(4 bytes @ 0xE0002010) -- CPU_WriteMem(4 bytes @ 0xE0002014) -- CPU_WriteMem(4 bytes @ 0xE0002018) -- CPU_WriteMem(4 bytes @ 0xE000201C) -- CPU_WriteMem(4 bytes @ 0xE0001004) (0007ms, 3241ms total)
T0718 3385:285 JLINK_IsHalted() -- CPU_ReadMem(2 bytes @ 0x20000000)  returns TRUE (0004ms, 3245ms total)
T0718 3385:289 JLINK_ReadReg(R15 (PC))  returns 0x20000000 (0000ms, 3241ms total)
T0718 3385:289 JLINK_ClrBPEx(BPHandle = 0x00000001)  returns 0x00 (0000ms, 3241ms total)
T0718 3385:289 JLINK_ReadReg(R0)  returns 0x00000000 (0000ms, 3241ms total)
T0718 3385:289 JLINK_WriteReg(R0, 0x08000000)  returns 0x00 (0000ms, 3241ms total)
T0718 3385:289 JLINK_WriteReg(R1, 0x00B71B00)  returns 0x00 (0000ms, 3241ms total)
T0718 3385:289 JLINK_WriteReg(R2, 0x00000001)  returns 0x00 (0000ms, 3241ms total)
T0718 3385:289 JLINK_WriteReg(R3, 0x00000000)  returns 0x00 (0000ms, 3241ms total)
T0718 3385:289 JLINK_WriteReg(R4, 0x00000000)  returns 0x00 (0000ms, 3241ms total)
T0718 3385:289 JLINK_WriteReg(R5, 0x00000000)  returns 0x00 (0000ms, 3241ms total)
T0718 3385:289 JLINK_WriteReg(R6, 0x00000000)  returns 0x00 (0000ms, 3241ms total)
T0718 3385:289 JLINK_WriteReg(R7, 0x00000000)  returns 0x00 (0000ms, 3241ms total)
T0718 3385:289 JLINK_WriteReg(R8, 0x00000000)  returns 0x00 (0000ms, 3241ms total)
T0718 3385:289 JLINK_WriteReg(R9, 0x20000160)  returns 0x00 (0000ms, 3241ms total)
T0718 3385:289 JLINK_WriteReg(R10, 0x00000000)  returns 0x00 (0000ms, 3241ms total)
T0718 3385:289 JLINK_WriteReg(R11, 0x00000000)  returns 0x00 (0000ms, 3241ms total)
T0718 3385:289 JLINK_WriteReg(R12, 0x00000000)  returns 0x00 (0000ms, 3241ms total)
T0718 3385:289 JLINK_WriteReg(R13 (SP), 0x20001000)  returns 0x00 (0000ms, 3241ms total)
T0718 3385:289 JLINK_WriteReg(R14, 0x20000001)  returns 0x00 (0000ms, 3241ms total)
T0718 3385:289 JLINK_WriteReg(R15 (PC), 0x2000007C)  returns 0x00 (0000ms, 3241ms total)
T0718 3385:289 JLINK_WriteReg(XPSR, 0x01000000)  returns 0x00 (0000ms, 3241ms total)
T0718 3385:289 JLINK_WriteReg(MSP, 0x20001000)  returns 0x00 (0000ms, 3241ms total)
T0718 3385:289 JLINK_WriteReg(PSP, 0x20001000)  returns 0x00 (0000ms, 3241ms total)
T0718 3385:289 JLINK_WriteReg(CFBP, 0x00000000)  returns 0x00 (0000ms, 3241ms total)
T0718 3385:289 JLINK_SetBPEx(Addr = 0x20000000, Type = 0xFFFFFFF2)  returns 0x00000002 (0000ms, 3241ms total)
T0718 3385:289 JLINK_Go() -- CPU_ReadMem(4 bytes @ 0xE0001000) (0003ms, 3244ms total)
T0718 3385:292 JLINK_IsHalted()  returns FALSE (0001ms, 3245ms total)
T0718 3385:313 JLINK_IsHalted()  returns FALSE (0000ms, 3244ms total)
T0718 3385:316 JLINK_IsHalted() -- CPU_ReadMem(2 bytes @ 0x20000000)  returns TRUE (0003ms, 3247ms total)
T0718 3385:319 JLINK_ReadReg(R15 (PC))  returns 0x20000000 (0000ms, 3244ms total)
T0718 3385:319 JLINK_ClrBPEx(BPHandle = 0x00000002)  returns 0x00 (0000ms, 3244ms total)
T0718 3385:319 JLINK_ReadReg(R0)  returns 0x00000000 (0000ms, 3244ms total)
T0718 3385:371 JLINK_WriteReg(R0, 0x00000001)  returns 0x00 (0000ms, 3244ms total)
T0718 3385:371 JLINK_WriteReg(R1, 0x00B71B00)  returns 0x00 (0000ms, 3244ms total)
T0718 3385:371 JLINK_WriteReg(R2, 0x00000001)  returns 0x00 (0000ms, 3244ms total)
T0718 3385:371 JLINK_WriteReg(R3, 0x00000000)  returns 0x00 (0000ms, 3244ms total)
T0718 3385:371 JLINK_WriteReg(R4, 0x00000000)  returns 0x00 (0000ms, 3244ms total)
T0718 3385:371 JLINK_WriteReg(R5, 0x00000000)  returns 0x00 (0000ms, 3244ms total)
T0718 3385:371 JLINK_WriteReg(R6, 0x00000000)  returns 0x00 (0000ms, 3244ms total)
T0718 3385:371 JLINK_WriteReg(R7, 0x00000000)  returns 0x00 (0000ms, 3244ms total)
T0718 3385:371 JLINK_WriteReg(R8, 0x00000000)  returns 0x00 (0000ms, 3244ms total)
T0718 3385:371 JLINK_WriteReg(R9, 0x20000160)  returns 0x00 (0000ms, 3244ms total)
T0718 3385:371 JLINK_WriteReg(R10, 0x00000000)  returns 0x00 (0000ms, 3244ms total)
T0718 3385:371 JLINK_WriteReg(R11, 0x00000000)  returns 0x00 (0000ms, 3244ms total)
T0718 3385:371 JLINK_WriteReg(R12, 0x00000000)  returns 0x00 (0000ms, 3244ms total)
T0718 3385:371 JLINK_WriteReg(R13 (SP), 0x20001000)  returns 0x00 (0000ms, 3244ms total)
T0718 3385:371 JLINK_WriteReg(R14, 0x20000001)  returns 0x00 (0000ms, 3244ms total)
T0718 3385:371 JLINK_WriteReg(R15 (PC), 0x2000006A)  returns 0x00 (0000ms, 3244ms total)
T0718 3385:371 JLINK_WriteReg(XPSR, 0x01000000)  returns 0x00 (0000ms, 3244ms total)
T0718 3385:371 JLINK_WriteReg(MSP, 0x20001000)  returns 0x00 (0000ms, 3244ms total)
T0718 3385:371 JLINK_WriteReg(PSP, 0x20001000)  returns 0x00 (0000ms, 3244ms total)
T0718 3385:371 JLINK_WriteReg(CFBP, 0x00000000)  returns 0x00 (0001ms, 3245ms total)
T0718 3385:372 JLINK_SetBPEx(Addr = 0x20000000, Type = 0xFFFFFFF2)  returns 0x00000003 (0000ms, 3245ms total)
T0718 3385:372 JLINK_Go() -- CPU_ReadMem(4 bytes @ 0xE0001000) (0003ms, 3248ms total)
T0718 3385:375 JLINK_IsHalted() -- CPU_ReadMem(2 bytes @ 0x20000000)  returns TRUE (0003ms, 3251ms total)
T0718 3385:378 JLINK_ReadReg(R15 (PC))  returns 0x20000000 (0000ms, 3248ms total)
T0718 3385:378 JLINK_ClrBPEx(BPHandle = 0x00000003)  returns 0x00 (0000ms, 3248ms total)
T0718 3385:378 JLINK_ReadReg(R0)  returns 0x00000000 (0000ms, 3248ms total)
T0718 3385:383 JLINK_WriteMem(0x20000000, 0x0164 Bytes, ...) - Data: 00 BE 0A E0 0D 78 2D 06 68 40 08 24 40 00 00 D3 ... -- CPU_WriteMem(356 bytes @ 0x20000000)  returns 0x164 (0002ms, 3250ms total)
T0718 3385:385 JLINK_WriteReg(R0, 0x08000000)  returns 0x00 (0000ms, 3250ms total)
T0718 3385:385 JLINK_WriteReg(R1, 0x00B71B00)  returns 0x00 (0000ms, 3250ms total)
T0718 3385:385 JLINK_WriteReg(R2, 0x00000002)  returns 0x00 (0000ms, 3250ms total)
T0718 3385:385 JLINK_WriteReg(R3, 0x00000000)  returns 0x00 (0000ms, 3250ms total)
T0718 3385:385 JLINK_WriteReg(R4, 0x00000000)  returns 0x00 (0000ms, 3250ms total)
T0718 3385:385 JLINK_WriteReg(R5, 0x00000000)  returns 0x00 (0000ms, 3250ms total)
T0718 3385:385 JLINK_WriteReg(R6, 0x00000000)  returns 0x00 (0000ms, 3250ms total)
T0718 3385:385 JLINK_WriteReg(R7, 0x00000000)  returns 0x00 (0000ms, 3250ms total)
T0718 3385:386 JLINK_WriteReg(R8, 0x00000000)  returns 0x00 (0000ms, 3250ms total)
T0718 3385:386 JLINK_WriteReg(R9, 0x20000160)  returns 0x00 (0000ms, 3250ms total)
T0718 3385:386 JLINK_WriteReg(R10, 0x00000000)  returns 0x00 (0000ms, 3250ms total)
T0718 3385:386 JLINK_WriteReg(R11, 0x00000000)  returns 0x00 (0000ms, 3250ms total)
T0718 3385:386 JLINK_WriteReg(R12, 0x00000000)  returns 0x00 (0000ms, 3250ms total)
T0718 3385:386 JLINK_WriteReg(R13 (SP), 0x20001000)  returns 0x00 (0000ms, 3250ms total)
T0718 3385:386 JLINK_WriteReg(R14, 0x20000001)  returns 0x00 (0000ms, 3250ms total)
T0718 3385:386 JLINK_WriteReg(R15 (PC), 0x20000038)  returns 0x00 (0000ms, 3250ms total)
T0718 3385:386 JLINK_WriteReg(XPSR, 0x01000000)  returns 0x00 (0000ms, 3250ms total)
T0718 3385:386 JLINK_WriteReg(MSP, 0x20001000)  returns 0x00 (0000ms, 3250ms total)
T0718 3385:386 JLINK_WriteReg(PSP, 0x20001000)  returns 0x00 (0000ms, 3250ms total)
T0718 3385:386 JLINK_WriteReg(CFBP, 0x00000000)  returns 0x00 (0000ms, 3250ms total)
T0718 3385:386 JLINK_SetBPEx(Addr = 0x20000000, Type = 0xFFFFFFF2) -- CPU_ReadMem(2 bytes @ 0x20000000)  returns 0x00000004 (0001ms, 3251ms total)
T0718 3385:387 JLINK_Go() -- CPU_WriteMem(2 bytes @ 0x20000000) -- CPU_ReadMem(4 bytes @ 0xE0001000) (0004ms, 3255ms total)
T0718 3385:391 JLINK_IsHalted() -- CPU_ReadMem(2 bytes @ 0x20000000)  returns TRUE (0004ms, 3259ms total)
T0718 3385:395 JLINK_ReadReg(R15 (PC))  returns 0x20000000 (0000ms, 3255ms total)
T0718 3385:395 JLINK_ClrBPEx(BPHandle = 0x00000004)  returns 0x00 (0000ms, 3255ms total)
T0718 3385:395 JLINK_ReadReg(R0)  returns 0x00000000 (0000ms, 3255ms total)
T0718 3385:395 JLINK_WriteMem(0x20000164, 0x029C Bytes, ...) - Data: E8 09 00 20 59 02 00 08 61 02 00 08 63 02 00 08 ... -- CPU_WriteMem(668 bytes @ 0x20000164)  returns 0x29C (0005ms, 3260ms total)
T0718 3385:400 JLINK_WriteMem(0x20000400, 0x0164 Bytes, ...) - Data: 00 F0 AE F9 05 68 06 F1 0B 00 20 F0 07 04 B4 42 ... -- CPU_WriteMem(356 bytes @ 0x20000400)  returns 0x164 (0003ms, 3263ms total)
T0718 3385:403 JLINK_WriteReg(R0, 0x08000000)  returns 0x00 (0000ms, 3263ms total)
T0718 3385:403 JLINK_WriteReg(R1, 0x00000400)  returns 0x00 (0000ms, 3263ms total)
T0718 3385:403 JLINK_WriteReg(R2, 0x20000164)  returns 0x00 (0000ms, 3263ms total)
T0718 3385:403 JLINK_WriteReg(R3, 0x00000000)  returns 0x00 (0000ms, 3263ms total)
T0718 3385:403 JLINK_WriteReg(R4, 0x00000000)  returns 0x00 (0000ms, 3263ms total)
T0718 3385:403 JLINK_WriteReg(R5, 0x00000000)  returns 0x00 (0000ms, 3263ms total)
T0718 3385:403 JLINK_WriteReg(R6, 0x00000000)  returns 0x00 (0000ms, 3263ms total)
T0718 3385:403 JLINK_WriteReg(R7, 0x00000000)  returns 0x00 (0000ms, 3263ms total)
T0718 3385:403 JLINK_WriteReg(R8, 0x00000000)  returns 0x00 (0000ms, 3263ms total)
T0718 3385:403 JLINK_WriteReg(R9, 0x20000160)  returns 0x00 (0000ms, 3263ms total)
T0718 3385:403 JLINK_WriteReg(R10, 0x00000000)  returns 0x00 (0000ms, 3263ms total)
T0718 3385:403 JLINK_WriteReg(R11, 0x00000000)  returns 0x00 (0000ms, 3263ms total)
T0718 3385:403 JLINK_WriteReg(R12, 0x00000000)  returns 0x00 (0000ms, 3263ms total)
T0718 3385:403 JLINK_WriteReg(R13 (SP), 0x20001000)  returns 0x00 (0000ms, 3263ms total)
T0718 3385:403 JLINK_WriteReg(R14, 0x20000001)  returns 0x00 (0000ms, 3263ms total)
T0718 3385:403 JLINK_WriteReg(R15 (PC), 0x200000F4)  returns 0x00 (0000ms, 3263ms total)
T0718 3385:403 JLINK_WriteReg(XPSR, 0x01000000)  returns 0x00 (0000ms, 3263ms total)
T0718 3385:403 JLINK_WriteReg(MSP, 0x20001000)  returns 0x00 (0000ms, 3263ms total)
T0718 3385:403 JLINK_WriteReg(PSP, 0x20001000)  returns 0x00 (0000ms, 3263ms total)
T0718 3385:403 JLINK_WriteReg(CFBP, 0x00000000)  returns 0x00 (0000ms, 3263ms total)
T0718 3385:403 JLINK_SetBPEx(Addr = 0x20000000, Type = 0xFFFFFFF2)  returns 0x00000005 (0000ms, 3263ms total)
T0718 3385:403 JLINK_Go() -- CPU_ReadMem(4 bytes @ 0xE0001000) (0003ms, 3266ms total)
T0718 3385:406 JLINK_IsHalted()  returns FALSE (0001ms, 3267ms total)
T0718 3385:411 JLINK_IsHalted()  returns FALSE (0000ms, 3266ms total)
T0718 3385:413 JLINK_IsHalted()  returns FALSE (0000ms, 3266ms total)
T0718 3385:415 JLINK_IsHalted()  returns FALSE (0000ms, 3266ms total)
T0718 3385:417 JLINK_IsHalted()  returns FALSE (0000ms, 3266ms total)
T0718 3385:419 JLINK_IsHalted()  returns FALSE (0000ms, 3266ms total)
T0718 3385:421 JLINK_IsHalted()  returns FALSE (0000ms, 3266ms total)
T0718 3385:423 JLINK_IsHalted()  returns FALSE (0000ms, 3266ms total)
T0718 3385:425 JLINK_IsHalted()  returns FALSE (0000ms, 3266ms total)
T0718 3385:427 JLINK_IsHalted()  returns FALSE (0000ms, 3266ms total)
T0718 3385:429 JLINK_IsHalted()  returns FALSE (0000ms, 3266ms total)
T0718 3385:431 JLINK_IsHalted()  returns FALSE (0000ms, 3266ms total)
T0718 3385:433 JLINK_IsHalted()  returns FALSE (0000ms, 3266ms total)
T0718 3385:435 JLINK_IsHalted()  returns FALSE (0000ms, 3266ms total)
T0718 3385:437 JLINK_IsHalted()  returns FALSE (0000ms, 3266ms total)
T0718 3385:439 JLINK_IsHalted() -- CPU_ReadMem(2 bytes @ 0x20000000)  returns TRUE (0003ms, 3269ms total)
T0718 3385:442 JLINK_ReadReg(R15 (PC))  returns 0x20000000 (0000ms, 3266ms total)
T0718 3385:442 JLINK_ClrBPEx(BPHandle = 0x00000005)  returns 0x00 (0000ms, 3266ms total)
T0718 3385:442 JLINK_ReadReg(R0)  returns 0x00000000 (0000ms, 3266ms total)
T0718 3385:443 JLINK_WriteMem(0x20000164, 0x029C Bytes, ...) - Data: AF F3 00 80 00 21 0A 22 06 F1 24 07 09 E0 B0 FB ... -- CPU_WriteMem(668 bytes @ 0x20000164)  returns 0x29C (0004ms, 3270ms total)
T0718 3385:447 JLINK_WriteMem(0x20000400, 0x0164 Bytes, ...) - Data: 10 20 70 47 10 B5 00 F0 B5 FA 00 68 10 BD 10 B5 ... -- CPU_WriteMem(356 bytes @ 0x20000400)  returns 0x164 (0003ms, 3273ms total)
T0718 3385:450 JLINK_WriteReg(R0, 0x08000400)  returns 0x00 (0000ms, 3273ms total)
T0718 3385:450 JLINK_WriteReg(R1, 0x00000400)  returns 0x00 (0000ms, 3273ms total)
T0718 3385:450 JLINK_WriteReg(R2, 0x20000164)  returns 0x00 (0000ms, 3273ms total)
T0718 3385:450 JLINK_WriteReg(R3, 0x00000000)  returns 0x00 (0000ms, 3273ms total)
T0718 3385:450 JLINK_WriteReg(R4, 0x00000000)  returns 0x00 (0000ms, 3273ms total)
T0718 3385:450 JLINK_WriteReg(R5, 0x00000000)  returns 0x00 (0000ms, 3273ms total)
T0718 3385:450 JLINK_WriteReg(R6, 0x00000000)  returns 0x00 (0000ms, 3273ms total)
T0718 3385:450 JLINK_WriteReg(R7, 0x00000000)  returns 0x00 (0000ms, 3273ms total)
T0718 3385:450 JLINK_WriteReg(R8, 0x00000000)  returns 0x00 (0000ms, 3273ms total)
T0718 3385:450 JLINK_WriteReg(R9, 0x20000160)  returns 0x00 (0000ms, 3273ms total)
T0718 3385:450 JLINK_WriteReg(R10, 0x00000000)  returns 0x00 (0000ms, 3273ms total)
T0718 3385:450 JLINK_WriteReg(R11, 0x00000000)  returns 0x00 (0001ms, 3274ms total)
T0718 3385:451 JLINK_WriteReg(R12, 0x00000000)  returns 0x00 (0000ms, 3274ms total)
T0718 3385:451 JLINK_WriteReg(R13 (SP), 0x20001000)  returns 0x00 (0000ms, 3274ms total)
T0718 3385:451 JLINK_WriteReg(R14, 0x20000001)  returns 0x00 (0000ms, 3274ms total)
T0718 3385:451 JLINK_WriteReg(R15 (PC), 0x200000F4)  returns 0x00 (0000ms, 3274ms total)
T0718 3385:451 JLINK_WriteReg(XPSR, 0x01000000)  returns 0x00 (0000ms, 3274ms total)
T0718 3385:451 JLINK_WriteReg(MSP, 0x20001000)  returns 0x00 (0000ms, 3274ms total)
T0718 3385:451 JLINK_WriteReg(PSP, 0x20001000)  returns 0x00 (0000ms, 3274ms total)
T0718 3385:451 JLINK_WriteReg(CFBP, 0x00000000)  returns 0x00 (0000ms, 3274ms total)
T0718 3385:451 JLINK_SetBPEx(Addr = 0x20000000, Type = 0xFFFFFFF2)  returns 0x00000006 (0000ms, 3274ms total)
T0718 3385:451 JLINK_Go() -- CPU_ReadMem(4 bytes @ 0xE0001000) (0003ms, 3277ms total)
T0718 3385:454 JLINK_IsHalted()  returns FALSE (0001ms, 3278ms total)
T0718 3385:457 JLINK_IsHalted()  returns FALSE (0000ms, 3277ms total)
T0718 3385:459 JLINK_IsHalted()  returns FALSE (0000ms, 3277ms total)
T0718 3385:461 JLINK_IsHalted()  returns FALSE (0000ms, 3277ms total)
T0718 3385:463 JLINK_IsHalted()  returns FALSE (0000ms, 3277ms total)
T0718 3385:465 JLINK_IsHalted()  returns FALSE (0000ms, 3277ms total)
T0718 3385:467 JLINK_IsHalted()  returns FALSE (0000ms, 3277ms total)
T0718 3385:469 JLINK_IsHalted()  returns FALSE (0000ms, 3277ms total)
T0718 3385:471 JLINK_IsHalted()  returns FALSE (0000ms, 3277ms total)
T0718 3385:473 JLINK_IsHalted()  returns FALSE (0000ms, 3277ms total)
T0718 3385:475 JLINK_IsHalted()  returns FALSE (0000ms, 3277ms total)
T0718 3385:477 JLINK_IsHalted()  returns FALSE (0000ms, 3277ms total)
T0718 3385:479 JLINK_IsHalted()  returns FALSE (0000ms, 3277ms total)
T0718 3385:482 JLINK_IsHalted()  returns FALSE (0000ms, 3277ms total)
T0718 3385:484 JLINK_IsHalted()  returns FALSE (0000ms, 3277ms total)
T0718 3385:486 JLINK_IsHalted() -- CPU_ReadMem(2 bytes @ 0x20000000)  returns TRUE (0004ms, 3281ms total)
T0718 3385:490 JLINK_ReadReg(R15 (PC))  returns 0x20000000 (0000ms, 3277ms total)
T0718 3385:490 JLINK_ClrBPEx(BPHandle = 0x00000006)  returns 0x00 (0000ms, 3277ms total)
T0718 3385:490 JLINK_ReadReg(R0)  returns 0x00000000 (0000ms, 3277ms total)
T0718 3385:490 JLINK_WriteMem(0x20000164, 0x029C Bytes, ...) - Data: C1 F8 08 80 C1 E9 00 20 0F B0 BD E8 F0 8F BD 1B ... -- CPU_WriteMem(668 bytes @ 0x20000164)  returns 0x29C (0005ms, 3282ms total)
T0718 3385:495 JLINK_WriteMem(0x20000400, 0x0164 Bytes, ...) - Data: 00 DC 5F B1 97 FB F1 FC 97 FB F1 F2 01 FB 1C 7C ... -- CPU_WriteMem(356 bytes @ 0x20000400)  returns 0x164 (0003ms, 3285ms total)
T0718 3385:498 JLINK_WriteReg(R0, 0x08000800)  returns 0x00 (0000ms, 3285ms total)
T0718 3385:498 JLINK_WriteReg(R1, 0x00000400)  returns 0x00 (0000ms, 3285ms total)
T0718 3385:498 JLINK_WriteReg(R2, 0x20000164)  returns 0x00 (0000ms, 3285ms total)
T0718 3385:498 JLINK_WriteReg(R3, 0x00000000)  returns 0x00 (0000ms, 3285ms total)
T0718 3385:498 JLINK_WriteReg(R4, 0x00000000)  returns 0x00 (0000ms, 3285ms total)
T0718 3385:498 JLINK_WriteReg(R5, 0x00000000)  returns 0x00 (0000ms, 3285ms total)
T0718 3385:498 JLINK_WriteReg(R6, 0x00000000)  returns 0x00 (0000ms, 3285ms total)
T0718 3385:498 JLINK_WriteReg(R7, 0x00000000)  returns 0x00 (0000ms, 3285ms total)
T0718 3385:498 JLINK_WriteReg(R8, 0x00000000)  returns 0x00 (0000ms, 3285ms total)
T0718 3385:498 JLINK_WriteReg(R9, 0x20000160)  returns 0x00 (0000ms, 3285ms total)
T0718 3385:498 JLINK_WriteReg(R10, 0x00000000)  returns 0x00 (0000ms, 3285ms total)
T0718 3385:498 JLINK_WriteReg(R11, 0x00000000)  returns 0x00 (0000ms, 3285ms total)
T0718 3385:498 JLINK_WriteReg(R12, 0x00000000)  returns 0x00 (0001ms, 3286ms total)
T0718 3385:499 JLINK_WriteReg(R13 (SP), 0x20001000)  returns 0x00 (0000ms, 3286ms total)
T0718 3385:499 JLINK_WriteReg(R14, 0x20000001)  returns 0x00 (0000ms, 3286ms total)
T0718 3385:499 JLINK_WriteReg(R15 (PC), 0x200000F4)  returns 0x00 (0000ms, 3286ms total)
T0718 3385:499 JLINK_WriteReg(XPSR, 0x01000000)  returns 0x00 (0000ms, 3286ms total)
T0718 3385:499 JLINK_WriteReg(MSP, 0x20001000)  returns 0x00 (0000ms, 3286ms total)
T0718 3385:499 JLINK_WriteReg(PSP, 0x20001000)  returns 0x00 (0000ms, 3286ms total)
T0718 3385:499 JLINK_WriteReg(CFBP, 0x00000000)  returns 0x00 (0000ms, 3286ms total)
T0718 3385:499 JLINK_SetBPEx(Addr = 0x20000000, Type = 0xFFFFFFF2)  returns 0x00000007 (0000ms, 3286ms total)
T0718 3385:499 JLINK_Go() -- CPU_ReadMem(4 bytes @ 0xE0001000) (0003ms, 3289ms total)
T0718 3385:502 JLINK_IsHalted()  returns FALSE (0000ms, 3289ms total)
T0718 3385:504 JLINK_IsHalted()  returns FALSE (0000ms, 3289ms total)
T0718 3385:506 JLINK_IsHalted()  returns FALSE (0000ms, 3289ms total)
T0718 3385:508 JLINK_IsHalted()  returns FALSE (0000ms, 3289ms total)
T0718 3385:510 JLINK_IsHalted()  returns FALSE (0000ms, 3289ms total)
T0718 3385:512 JLINK_IsHalted()  returns FALSE (0000ms, 3289ms total)
T0718 3385:514 JLINK_IsHalted()  returns FALSE (0000ms, 3289ms total)
T0718 3385:516 JLINK_IsHalted()  returns FALSE (0000ms, 3289ms total)
T0718 3385:518 JLINK_IsHalted()  returns FALSE (0000ms, 3289ms total)
T0718 3385:520 JLINK_IsHalted()  returns FALSE (0000ms, 3289ms total)
T0718 3385:522 JLINK_IsHalted()  returns FALSE (0000ms, 3289ms total)
T0718 3385:524 JLINK_IsHalted()  returns FALSE (0000ms, 3289ms total)
T0718 3385:526 JLINK_IsHalted()  returns FALSE (0000ms, 3289ms total)
T0718 3385:528 JLINK_IsHalted()  returns FALSE (0000ms, 3289ms total)
T0718 3385:530 JLINK_IsHalted()  returns FALSE (0000ms, 3289ms total)
T0718 3385:532 JLINK_IsHalted()  returns FALSE (0000ms, 3289ms total)
T0718 3385:534 JLINK_IsHalted() -- CPU_ReadMem(2 bytes @ 0x20000000)  returns TRUE (0003ms, 3292ms total)
T0718 3385:537 JLINK_ReadReg(R15 (PC))  returns 0x20000000 (0000ms, 3289ms total)
T0718 3385:537 JLINK_ClrBPEx(BPHandle = 0x00000007)  returns 0x00 (0000ms, 3289ms total)
T0718 3385:537 JLINK_ReadReg(R0)  returns 0x00000000 (0000ms, 3289ms total)
T0718 3385:538 JLINK_WriteMem(0x20000164, 0x029C Bytes, ...) - Data: 00 48 70 47 88 03 00 20 00 48 70 47 A8 03 00 20 ... -- CPU_WriteMem(668 bytes @ 0x20000164)  returns 0x29C (0004ms, 3293ms total)
T0718 3385:542 JLINK_WriteMem(0x20000400, 0x0164 Bytes, ...) - Data: 00 80 20 46 BD E8 10 40 FF F7 D2 B9 00 28 01 D0 ... -- CPU_WriteMem(356 bytes @ 0x20000400)  returns 0x164 (0003ms, 3296ms total)
T0718 3385:545 JLINK_WriteReg(R0, 0x08000C00)  returns 0x00 (0000ms, 3296ms total)
T0718 3385:545 JLINK_WriteReg(R1, 0x00000400)  returns 0x00 (0000ms, 3296ms total)
T0718 3385:545 JLINK_WriteReg(R2, 0x20000164)  returns 0x00 (0000ms, 3296ms total)
T0718 3385:545 JLINK_WriteReg(R3, 0x00000000)  returns 0x00 (0000ms, 3296ms total)
T0718 3385:545 JLINK_WriteReg(R4, 0x00000000)  returns 0x00 (0000ms, 3296ms total)
T0718 3385:545 JLINK_WriteReg(R5, 0x00000000)  returns 0x00 (0000ms, 3296ms total)
T0718 3385:545 JLINK_WriteReg(R6, 0x00000000)  returns 0x00 (0000ms, 3296ms total)
T0718 3385:545 JLINK_WriteReg(R7, 0x00000000)  returns 0x00 (0000ms, 3296ms total)
T0718 3385:545 JLINK_WriteReg(R8, 0x00000000)  returns 0x00 (0000ms, 3296ms total)
T0718 3385:545 JLINK_WriteReg(R9, 0x20000160)  returns 0x00 (0000ms, 3296ms total)
T0718 3385:545 JLINK_WriteReg(R10, 0x00000000)  returns 0x00 (0000ms, 3296ms total)
T0718 3385:545 JLINK_WriteReg(R11, 0x00000000)  returns 0x00 (0000ms, 3296ms total)
T0718 3385:545 JLINK_WriteReg(R12, 0x00000000)  returns 0x00 (0000ms, 3296ms total)
T0718 3385:545 JLINK_WriteReg(R13 (SP), 0x20001000)  returns 0x00 (0000ms, 3296ms total)
T0718 3385:545 JLINK_WriteReg(R14, 0x20000001)  returns 0x00 (0000ms, 3296ms total)
T0718 3385:545 JLINK_WriteReg(R15 (PC), 0x200000F4)  returns 0x00 (0001ms, 3297ms total)
T0718 3385:546 JLINK_WriteReg(XPSR, 0x01000000)  returns 0x00 (0000ms, 3297ms total)
T0718 3385:546 JLINK_WriteReg(MSP, 0x20001000)  returns 0x00 (0000ms, 3297ms total)
T0718 3385:546 JLINK_WriteReg(PSP, 0x20001000)  returns 0x00 (0000ms, 3297ms total)
T0718 3385:546 JLINK_WriteReg(CFBP, 0x00000000)  returns 0x00 (0000ms, 3297ms total)
T0718 3385:546 JLINK_SetBPEx(Addr = 0x20000000, Type = 0xFFFFFFF2)  returns 0x00000008 (0000ms, 3297ms total)
T0718 3385:546 JLINK_Go() -- CPU_ReadMem(4 bytes @ 0xE0001000) (0003ms, 3300ms total)
T0718 3385:549 JLINK_IsHalted()  returns FALSE (0000ms, 3300ms total)
T0718 3385:551 JLINK_IsHalted()  returns FALSE (0000ms, 3300ms total)
T0718 3385:553 JLINK_IsHalted()  returns FALSE (0000ms, 3300ms total)
T0718 3385:555 JLINK_IsHalted()  returns FALSE (0000ms, 3300ms total)
T0718 3385:557 JLINK_IsHalted()  returns FALSE (0000ms, 3300ms total)
T0718 3385:559 JLINK_IsHalted()  returns FALSE (0000ms, 3300ms total)
T0718 3385:561 JLINK_IsHalted()  returns FALSE (0000ms, 3300ms total)
T0718 3385:564 JLINK_IsHalted()  returns FALSE (0000ms, 3300ms total)
T0718 3385:566 JLINK_IsHalted()  returns FALSE (0000ms, 3300ms total)
T0718 3385:568 JLINK_IsHalted()  returns FALSE (0000ms, 3300ms total)
T0718 3385:570 JLINK_IsHalted()  returns FALSE (0000ms, 3300ms total)
T0718 3385:572 JLINK_IsHalted()  returns FALSE (0000ms, 3300ms total)
T0718 3385:574 JLINK_IsHalted()  returns FALSE (0000ms, 3300ms total)
T0718 3385:576 JLINK_IsHalted()  returns FALSE (0000ms, 3300ms total)
T0718 3385:578 JLINK_IsHalted()  returns FALSE (0000ms, 3300ms total)
T0718 3385:580 JLINK_IsHalted()  returns FALSE (0000ms, 3300ms total)
T0718 3385:582 JLINK_IsHalted() -- CPU_ReadMem(2 bytes @ 0x20000000)  returns TRUE (0004ms, 3304ms total)
T0718 3385:586 JLINK_ReadReg(R15 (PC))  returns 0x20000000 (0000ms, 3300ms total)
T0718 3385:586 JLINK_ClrBPEx(BPHandle = 0x00000008)  returns 0x00 (0000ms, 3300ms total)
T0718 3385:586 JLINK_ReadReg(R0)  returns 0x00000000 (0000ms, 3300ms total)
T0718 3385:586 JLINK_WriteMem(0x20000164, 0x029C Bytes, ...) - Data: 29 80 BC F1 FF 3F 08 BF 40 F0 80 40 70 47 13 0C ... -- CPU_WriteMem(668 bytes @ 0x20000164)  returns 0x29C (0005ms, 3305ms total)
T0718 3385:591 JLINK_WriteMem(0x20000400, 0x0164 Bytes, ...) - Data: 17 42 0C FB 08 F7 34 BF A2 EB 07 42 B2 EB 07 42 ... -- CPU_WriteMem(356 bytes @ 0x20000400)  returns 0x164 (0003ms, 3308ms total)
T0718 3385:594 JLINK_WriteReg(R0, 0x08001000)  returns 0x00 (0000ms, 3308ms total)
T0718 3385:594 JLINK_WriteReg(R1, 0x00000400)  returns 0x00 (0000ms, 3308ms total)
T0718 3385:594 JLINK_WriteReg(R2, 0x20000164)  returns 0x00 (0000ms, 3308ms total)
T0718 3385:594 JLINK_WriteReg(R3, 0x00000000)  returns 0x00 (0000ms, 3308ms total)
T0718 3385:594 JLINK_WriteReg(R4, 0x00000000)  returns 0x00 (0000ms, 3308ms total)
T0718 3385:594 JLINK_WriteReg(R5, 0x00000000)  returns 0x00 (0000ms, 3308ms total)
T0718 3385:594 JLINK_WriteReg(R6, 0x00000000)  returns 0x00 (0000ms, 3308ms total)
T0718 3385:594 JLINK_WriteReg(R7, 0x00000000)  returns 0x00 (0000ms, 3308ms total)
T0718 3385:594 JLINK_WriteReg(R8, 0x00000000)  returns 0x00 (0000ms, 3308ms total)
T0718 3385:594 JLINK_WriteReg(R9, 0x20000160)  returns 0x00 (0000ms, 3308ms total)
T0718 3385:594 JLINK_WriteReg(R10, 0x00000000)  returns 0x00 (0000ms, 3308ms total)
T0718 3385:594 JLINK_WriteReg(R11, 0x00000000)  returns 0x00 (0000ms, 3308ms total)
T0718 3385:594 JLINK_WriteReg(R12, 0x00000000)  returns 0x00 (0000ms, 3308ms total)
T0718 3385:594 JLINK_WriteReg(R13 (SP), 0x20001000)  returns 0x00 (0000ms, 3308ms total)
T0718 3385:594 JLINK_WriteReg(R14, 0x20000001)  returns 0x00 (0000ms, 3308ms total)
T0718 3385:594 JLINK_WriteReg(R15 (PC), 0x200000F4)  returns 0x00 (0000ms, 3308ms total)
T0718 3385:594 JLINK_WriteReg(XPSR, 0x01000000)  returns 0x00 (0000ms, 3308ms total)
T0718 3385:594 JLINK_WriteReg(MSP, 0x20001000)  returns 0x00 (0000ms, 3308ms total)
T0718 3385:594 JLINK_WriteReg(PSP, 0x20001000)  returns 0x00 (0000ms, 3308ms total)
T0718 3385:594 JLINK_WriteReg(CFBP, 0x00000000)  returns 0x00 (0000ms, 3308ms total)
T0718 3385:594 JLINK_SetBPEx(Addr = 0x20000000, Type = 0xFFFFFFF2)  returns 0x00000009 (0000ms, 3308ms total)
T0718 3385:594 JLINK_Go() -- CPU_ReadMem(4 bytes @ 0xE0001000) (0004ms, 3312ms total)
T0718 3385:598 JLINK_IsHalted()  returns FALSE (0000ms, 3312ms total)
T0718 3385:601 JLINK_IsHalted()  returns FALSE (0000ms, 3312ms total)
T0718 3385:603 JLINK_IsHalted()  returns FALSE (0000ms, 3312ms total)
T0718 3385:606 JLINK_IsHalted()  returns FALSE (0000ms, 3312ms total)
T0718 3385:608 JLINK_IsHalted()  returns FALSE (0000ms, 3312ms total)
T0718 3385:610 JLINK_IsHalted()  returns FALSE (0000ms, 3312ms total)
T0718 3385:612 JLINK_IsHalted()  returns FALSE (0000ms, 3312ms total)
T0718 3385:614 JLINK_IsHalted()  returns FALSE (0001ms, 3313ms total)
T0718 3385:617 JLINK_IsHalted()  returns FALSE (0000ms, 3312ms total)
T0718 3385:619 JLINK_IsHalted()  returns FALSE (0000ms, 3312ms total)
T0718 3385:621 JLINK_IsHalted()  returns FALSE (0000ms, 3312ms total)
T0718 3385:623 JLINK_IsHalted()  returns FALSE (0000ms, 3312ms total)
T0718 3385:625 JLINK_IsHalted()  returns FALSE (0001ms, 3313ms total)
T0718 3385:628 JLINK_IsHalted()  returns FALSE (0000ms, 3312ms total)
T0718 3385:630 JLINK_IsHalted() -- CPU_ReadMem(2 bytes @ 0x20000000)  returns TRUE (0003ms, 3315ms total)
T0718 3385:633 JLINK_ReadReg(R15 (PC))  returns 0x20000000 (0000ms, 3312ms total)
T0718 3385:633 JLINK_ClrBPEx(BPHandle = 0x00000009)  returns 0x00 (0000ms, 3312ms total)
T0718 3385:633 JLINK_ReadReg(R0)  returns 0x00000000 (0000ms, 3312ms total)
T0718 3385:634 JLINK_WriteMem(0x20000164, 0x029C Bytes, ...) - Data: 10 00 4F F0 10 01 BA F1 00 0F 06 D0 BC F1 00 0F ... -- CPU_WriteMem(668 bytes @ 0x20000164)  returns 0x29C (0005ms, 3317ms total)
T0718 3385:639 JLINK_WriteMem(0x20000400, 0x0164 Bytes, ...) - Data: 41 EB 01 01 A3 F1 01 03 70 47 95 F0 00 0F 37 D0 ... -- CPU_WriteMem(356 bytes @ 0x20000400)  returns 0x164 (0003ms, 3320ms total)
T0718 3385:642 JLINK_WriteReg(R0, 0x08001400)  returns 0x00 (0000ms, 3320ms total)
T0718 3385:642 JLINK_WriteReg(R1, 0x00000400)  returns 0x00 (0000ms, 3320ms total)
T0718 3385:642 JLINK_WriteReg(R2, 0x20000164)  returns 0x00 (0000ms, 3320ms total)
T0718 3385:642 JLINK_WriteReg(R3, 0x00000000)  returns 0x00 (0000ms, 3320ms total)
T0718 3385:642 JLINK_WriteReg(R4, 0x00000000)  returns 0x00 (0000ms, 3320ms total)
T0718 3385:642 JLINK_WriteReg(R5, 0x00000000)  returns 0x00 (0000ms, 3320ms total)
T0718 3385:642 JLINK_WriteReg(R6, 0x00000000)  returns 0x00 (0000ms, 3320ms total)
T0718 3385:642 JLINK_WriteReg(R7, 0x00000000)  returns 0x00 (0000ms, 3320ms total)
T0718 3385:642 JLINK_WriteReg(R8, 0x00000000)  returns 0x00 (0000ms, 3320ms total)
T0718 3385:642 JLINK_WriteReg(R9, 0x20000160)  returns 0x00 (0000ms, 3320ms total)
T0718 3385:642 JLINK_WriteReg(R10, 0x00000000)  returns 0x00 (0000ms, 3320ms total)
T0718 3385:642 JLINK_WriteReg(R11, 0x00000000)  returns 0x00 (0000ms, 3320ms total)
T0718 3385:642 JLINK_WriteReg(R12, 0x00000000)  returns 0x00 (0000ms, 3320ms total)
T0718 3385:642 JLINK_WriteReg(R13 (SP), 0x20001000)  returns 0x00 (0000ms, 3320ms total)
T0718 3385:642 JLINK_WriteReg(R14, 0x20000001)  returns 0x00 (0000ms, 3320ms total)
T0718 3385:642 JLINK_WriteReg(R15 (PC), 0x200000F4)  returns 0x00 (0000ms, 3320ms total)
T0718 3385:642 JLINK_WriteReg(XPSR, 0x01000000)  returns 0x00 (0000ms, 3320ms total)
T0718 3385:642 JLINK_WriteReg(MSP, 0x20001000)  returns 0x00 (0000ms, 3320ms total)
T0718 3385:642 JLINK_WriteReg(PSP, 0x20001000)  returns 0x00 (0000ms, 3320ms total)
T0718 3385:642 JLINK_WriteReg(CFBP, 0x00000000)  returns 0x00 (0000ms, 3320ms total)
T0718 3385:642 JLINK_SetBPEx(Addr = 0x20000000, Type = 0xFFFFFFF2)  returns 0x0000000A (0000ms, 3320ms total)
T0718 3385:642 JLINK_Go() -- CPU_ReadMem(4 bytes @ 0xE0001000) (0003ms, 3323ms total)
T0718 3385:645 JLINK_IsHalted()  returns FALSE (0001ms, 3324ms total)
T0718 3385:649 JLINK_IsHalted()  returns FALSE (0000ms, 3323ms total)
T0718 3385:651 JLINK_IsHalted()  returns FALSE (0000ms, 3323ms total)
T0718 3385:653 JLINK_IsHalted()  returns FALSE (0001ms, 3324ms total)
T0718 3385:656 JLINK_IsHalted()  returns FALSE (0000ms, 3323ms total)
T0718 3385:658 JLINK_IsHalted()  returns FALSE (0001ms, 3324ms total)
T0718 3385:661 JLINK_IsHalted()  returns FALSE (0000ms, 3323ms total)
T0718 3385:663 JLINK_IsHalted()  returns FALSE (0001ms, 3324ms total)
T0718 3385:666 JLINK_IsHalted()  returns FALSE (0000ms, 3323ms total)
T0718 3385:669 JLINK_IsHalted()  returns FALSE (0001ms, 3324ms total)
T0718 3385:672 JLINK_IsHalted()  returns FALSE (0000ms, 3323ms total)
T0718 3385:674 JLINK_IsHalted()  returns FALSE (0001ms, 3324ms total)
T0718 3385:677 JLINK_IsHalted() -- CPU_ReadMem(2 bytes @ 0x20000000)  returns TRUE (0003ms, 3326ms total)
T0718 3385:680 JLINK_ReadReg(R15 (PC))  returns 0x20000000 (0000ms, 3323ms total)
T0718 3385:680 JLINK_ClrBPEx(BPHandle = 0x0000000A)  returns 0x00 (0000ms, 3323ms total)
T0718 3385:680 JLINK_ReadReg(R0)  returns 0x00000000 (0000ms, 3323ms total)
T0718 3385:681 JLINK_WriteMem(0x20000164, 0x029C Bytes, ...) - Data: D1 E9 02 54 2C 43 4D 79 44 EA 45 04 20 43 90 60 ... -- CPU_WriteMem(668 bytes @ 0x20000164)  returns 0x29C (0004ms, 3327ms total)
T0718 3385:685 JLINK_WriteMem(0x20000400, 0x0164 Bytes, ...) - Data: 03 FC 4C EA 04 04 91 F8 03 C0 BC F1 28 0F 06 D1 ... -- CPU_WriteMem(356 bytes @ 0x20000400)  returns 0x164 (0003ms, 3330ms total)
T0718 3385:688 JLINK_WriteReg(R0, 0x08001800)  returns 0x00 (0000ms, 3330ms total)
T0718 3385:688 JLINK_WriteReg(R1, 0x00000400)  returns 0x00 (0000ms, 3330ms total)
T0718 3385:688 JLINK_WriteReg(R2, 0x20000164)  returns 0x00 (0000ms, 3330ms total)
T0718 3385:688 JLINK_WriteReg(R3, 0x00000000)  returns 0x00 (0000ms, 3330ms total)
T0718 3385:688 JLINK_WriteReg(R4, 0x00000000)  returns 0x00 (0000ms, 3330ms total)
T0718 3385:688 JLINK_WriteReg(R5, 0x00000000)  returns 0x00 (0000ms, 3330ms total)
T0718 3385:688 JLINK_WriteReg(R6, 0x00000000)  returns 0x00 (0000ms, 3330ms total)
T0718 3385:688 JLINK_WriteReg(R7, 0x00000000)  returns 0x00 (0000ms, 3330ms total)
T0718 3385:688 JLINK_WriteReg(R8, 0x00000000)  returns 0x00 (0000ms, 3330ms total)
T0718 3385:688 JLINK_WriteReg(R9, 0x20000160)  returns 0x00 (0000ms, 3330ms total)
T0718 3385:688 JLINK_WriteReg(R10, 0x00000000)  returns 0x00 (0000ms, 3330ms total)
T0718 3385:688 JLINK_WriteReg(R11, 0x00000000)  returns 0x00 (0000ms, 3330ms total)
T0718 3385:688 JLINK_WriteReg(R12, 0x00000000)  returns 0x00 (0000ms, 3330ms total)
T0718 3385:688 JLINK_WriteReg(R13 (SP), 0x20001000)  returns 0x00 (0000ms, 3330ms total)
T0718 3385:688 JLINK_WriteReg(R14, 0x20000001)  returns 0x00 (0000ms, 3330ms total)
T0718 3385:688 JLINK_WriteReg(R15 (PC), 0x200000F4)  returns 0x00 (0000ms, 3330ms total)
T0718 3385:688 JLINK_WriteReg(XPSR, 0x01000000)  returns 0x00 (0000ms, 3330ms total)
T0718 3385:688 JLINK_WriteReg(MSP, 0x20001000)  returns 0x00 (0000ms, 3330ms total)
T0718 3385:688 JLINK_WriteReg(PSP, 0x20001000)  returns 0x00 (0000ms, 3330ms total)
T0718 3385:688 JLINK_WriteReg(CFBP, 0x00000000)  returns 0x00 (0000ms, 3330ms total)
T0718 3385:688 JLINK_SetBPEx(Addr = 0x20000000, Type = 0xFFFFFFF2)  returns 0x0000000B (0000ms, 3330ms total)
T0718 3385:688 JLINK_Go() -- CPU_ReadMem(4 bytes @ 0xE0001000) (0005ms, 3335ms total)
T0718 3385:693 JLINK_IsHalted()  returns FALSE (0000ms, 3335ms total)
T0718 3385:695 JLINK_IsHalted()  returns FALSE (0001ms, 3336ms total)
T0718 3385:698 JLINK_IsHalted()  returns FALSE (0000ms, 3335ms total)
T0718 3385:701 JLINK_IsHalted()  returns FALSE (0000ms, 3335ms total)
T0718 3385:703 JLINK_IsHalted()  returns FALSE (0000ms, 3335ms total)
T0718 3385:705 JLINK_IsHalted()  returns FALSE (0000ms, 3335ms total)
T0718 3385:707 JLINK_IsHalted()  returns FALSE (0000ms, 3335ms total)
T0718 3385:710 JLINK_IsHalted()  returns FALSE (0000ms, 3335ms total)
T0718 3385:712 JLINK_IsHalted()  returns FALSE (0000ms, 3335ms total)
T0718 3385:716 JLINK_IsHalted()  returns FALSE (0000ms, 3335ms total)
T0718 3385:718 JLINK_IsHalted()  returns FALSE (0000ms, 3335ms total)
T0718 3385:720 JLINK_IsHalted()  returns FALSE (0000ms, 3335ms total)
T0718 3385:722 JLINK_IsHalted()  returns FALSE (0000ms, 3335ms total)
T0718 3385:724 JLINK_IsHalted() -- CPU_ReadMem(2 bytes @ 0x20000000)  returns TRUE (0003ms, 3338ms total)
T0718 3385:728 JLINK_ReadReg(R15 (PC))  returns 0x20000000 (0000ms, 3335ms total)
T0718 3385:728 JLINK_ClrBPEx(BPHandle = 0x0000000B)  returns 0x00 (0000ms, 3335ms total)
T0718 3385:728 JLINK_ReadReg(R0)  returns 0x00000000 (0000ms, 3335ms total)
T0718 3385:728 JLINK_WriteMem(0x20000164, 0x029C Bytes, ...) - Data: 00 23 0F 22 C4 78 04 B3 15 4C 24 68 04 F4 E0 64 ... -- CPU_WriteMem(668 bytes @ 0x20000164)  returns 0x29C (0004ms, 3339ms total)
T0718 3385:733 JLINK_WriteMem(0x20000400, 0x0164 Bytes, ...) - Data: 01 F8 10 BD 0C B5 00 20 01 90 00 90 33 48 00 68 ... -- CPU_WriteMem(356 bytes @ 0x20000400)  returns 0x164 (0002ms, 3342ms total)
T0718 3385:735 JLINK_WriteReg(R0, 0x08001C00)  returns 0x00 (0001ms, 3343ms total)
T0718 3385:736 JLINK_WriteReg(R1, 0x00000400)  returns 0x00 (0000ms, 3343ms total)
T0718 3385:736 JLINK_WriteReg(R2, 0x20000164)  returns 0x00 (0000ms, 3343ms total)
T0718 3385:736 JLINK_WriteReg(R3, 0x00000000)  returns 0x00 (0000ms, 3343ms total)
T0718 3385:736 JLINK_WriteReg(R4, 0x00000000)  returns 0x00 (0000ms, 3343ms total)
T0718 3385:736 JLINK_WriteReg(R5, 0x00000000)  returns 0x00 (0000ms, 3343ms total)
T0718 3385:736 JLINK_WriteReg(R6, 0x00000000)  returns 0x00 (0000ms, 3343ms total)
T0718 3385:736 JLINK_WriteReg(R7, 0x00000000)  returns 0x00 (0000ms, 3343ms total)
T0718 3385:736 JLINK_WriteReg(R8, 0x00000000)  returns 0x00 (0000ms, 3343ms total)
T0718 3385:736 JLINK_WriteReg(R9, 0x20000160)  returns 0x00 (0000ms, 3343ms total)
T0718 3385:736 JLINK_WriteReg(R10, 0x00000000)  returns 0x00 (0000ms, 3343ms total)
T0718 3385:736 JLINK_WriteReg(R11, 0x00000000)  returns 0x00 (0000ms, 3343ms total)
T0718 3385:736 JLINK_WriteReg(R12, 0x00000000)  returns 0x00 (0000ms, 3343ms total)
T0718 3385:736 JLINK_WriteReg(R13 (SP), 0x20001000)  returns 0x00 (0000ms, 3343ms total)
T0718 3385:736 JLINK_WriteReg(R14, 0x20000001)  returns 0x00 (0000ms, 3343ms total)
T0718 3385:736 JLINK_WriteReg(R15 (PC), 0x200000F4)  returns 0x00 (0000ms, 3343ms total)
T0718 3385:736 JLINK_WriteReg(XPSR, 0x01000000)  returns 0x00 (0000ms, 3343ms total)
T0718 3385:736 JLINK_WriteReg(MSP, 0x20001000)  returns 0x00 (0000ms, 3343ms total)
T0718 3385:736 JLINK_WriteReg(PSP, 0x20001000)  returns 0x00 (0000ms, 3343ms total)
T0718 3385:736 JLINK_WriteReg(CFBP, 0x00000000)  returns 0x00 (0000ms, 3343ms total)
T0718 3385:736 JLINK_SetBPEx(Addr = 0x20000000, Type = 0xFFFFFFF2)  returns 0x0000000C (0000ms, 3343ms total)
T0718 3385:736 JLINK_Go() -- CPU_ReadMem(4 bytes @ 0xE0001000) (0003ms, 3346ms total)
T0718 3385:739 JLINK_IsHalted()  returns FALSE (0001ms, 3347ms total)
T0718 3385:742 JLINK_IsHalted()  returns FALSE (0000ms, 3346ms total)
T0718 3385:744 JLINK_IsHalted()  returns FALSE (0000ms, 3346ms total)
T0718 3385:746 JLINK_IsHalted()  returns FALSE (0000ms, 3346ms total)
T0718 3385:748 JLINK_IsHalted()  returns FALSE (0000ms, 3346ms total)
T0718 3385:750 JLINK_IsHalted()  returns FALSE (0000ms, 3346ms total)
T0718 3385:752 JLINK_IsHalted()  returns FALSE (0000ms, 3346ms total)
T0718 3385:754 JLINK_IsHalted()  returns FALSE (0000ms, 3346ms total)
T0718 3385:756 JLINK_IsHalted()  returns FALSE (0000ms, 3346ms total)
T0718 3385:758 JLINK_IsHalted()  returns FALSE (0000ms, 3346ms total)
T0718 3385:760 JLINK_IsHalted()  returns FALSE (0000ms, 3346ms total)
T0718 3385:762 JLINK_IsHalted()  returns FALSE (0000ms, 3346ms total)
T0718 3385:764 JLINK_IsHalted()  returns FALSE (0000ms, 3346ms total)
T0718 3385:766 JLINK_IsHalted()  returns FALSE (0000ms, 3346ms total)
T0718 3385:768 JLINK_IsHalted()  returns FALSE (0000ms, 3346ms total)
T0718 3385:770 JLINK_IsHalted()  returns FALSE (0000ms, 3346ms total)
T0718 3385:772 JLINK_IsHalted() -- CPU_ReadMem(2 bytes @ 0x20000000)  returns TRUE (0003ms, 3349ms total)
T0718 3385:775 JLINK_ReadReg(R15 (PC))  returns 0x20000000 (0000ms, 3346ms total)
T0718 3385:775 JLINK_ClrBPEx(BPHandle = 0x0000000C)  returns 0x00 (0000ms, 3346ms total)
T0718 3385:775 JLINK_ReadReg(R0)  returns 0x00000000 (0000ms, 3346ms total)
T0718 3385:775 JLINK_WriteMem(0x20000164, 0x029C Bytes, ...) - Data: 20 00 00 20 10 B5 01 21 06 48 00 F0 32 F8 40 B1 ... -- CPU_WriteMem(668 bytes @ 0x20000164)  returns 0x29C (0005ms, 3351ms total)
T0718 3385:780 JLINK_WriteMem(0x20000400, 0x0164 Bytes, ...) - Data: 5A F9 80 1C 0E 90 0E 98 FD F7 F8 FF 10 90 15 98 ... -- CPU_WriteMem(356 bytes @ 0x20000400)  returns 0x164 (0003ms, 3354ms total)
T0718 3385:783 JLINK_WriteReg(R0, 0x08002000)  returns 0x00 (0000ms, 3354ms total)
T0718 3385:783 JLINK_WriteReg(R1, 0x00000400)  returns 0x00 (0000ms, 3354ms total)
T0718 3385:783 JLINK_WriteReg(R2, 0x20000164)  returns 0x00 (0000ms, 3354ms total)
T0718 3385:783 JLINK_WriteReg(R3, 0x00000000)  returns 0x00 (0000ms, 3354ms total)
T0718 3385:783 JLINK_WriteReg(R4, 0x00000000)  returns 0x00 (0000ms, 3354ms total)
T0718 3385:783 JLINK_WriteReg(R5, 0x00000000)  returns 0x00 (0000ms, 3354ms total)
T0718 3385:783 JLINK_WriteReg(R6, 0x00000000)  returns 0x00 (0000ms, 3354ms total)
T0718 3385:783 JLINK_WriteReg(R7, 0x00000000)  returns 0x00 (0000ms, 3354ms total)
T0718 3385:783 JLINK_WriteReg(R8, 0x00000000)  returns 0x00 (0000ms, 3354ms total)
T0718 3385:783 JLINK_WriteReg(R9, 0x20000160)  returns 0x00 (0000ms, 3354ms total)
T0718 3385:783 JLINK_WriteReg(R10, 0x00000000)  returns 0x00 (0000ms, 3354ms total)
T0718 3385:783 JLINK_WriteReg(R11, 0x00000000)  returns 0x00 (0000ms, 3354ms total)
